Circuit: * D:\MeineDatein\Elektronik\Heimautomation\Heizung\Optolink\OptolinkDuoBlock\Simulation\SFH309FA\test2SFH309FA.asc

Direct Newton iteration for .op point succeeded.
Semiconductor Device Operating Points:
                        --- Bipolar Transistors ---
Name:     q:x1:2      q:x1:1
Model:   x1:sfh309   x1:sfh309
Ib:       3.19e-06    6.37e-08
Ic:       2.11e-03    4.29e-05
Vbe:      7.86e-01    5.60e-01
Vbc:     -4.21e+00   -4.44e+00
Vce:      5.00e+00    5.00e+00
BetaDC:   6.61e+02    6.73e+02
Gm:       7.44e-02    1.64e-03
Rpi:      8.27e+03    4.27e+05
Rx:       0.00e+00    0.00e+00
Ro:       4.62e+04    2.27e+06
Cbe:      2.22e-11    1.39e-11
Cbc:      4.63e-12    4.57e-12
Cjs:      0.00e+00    0.00e+00
BetaAC:   6.15e+02    6.99e+02
Cbx:      0.00e+00    0.00e+00
Ft:       4.40e+08    1.41e+07



Date: Fri Jul 31 16:47:50 2020
Total elapsed time: 0.156 seconds.

tnom = 27
temp = 27
method = trap
totiter = 8
traniter = 0
tranpoints = 0
accept = 0
rejected = 0
matrix size = 10
fillins = 0
solver = Normal
Matrix Compiler1: 400 bytes object code size
Matrix Compiler2: 728 bytes object code size
